Circuit: * C:\Users\krist\Documents\Homework\Engr\339_340\TeamSediSensor\Electronics\Simulation\Phototransistor\test_PhotoTransistor.asc

WARNING: Less than two connections to node -VCC.  This node is used by V§-VCC.
WARNING: Less than two connections to node VTEST.  This node is used by VTEST.
WARNING: Less than two connections to node VTEST2.  This node is used by VTEST2.
Direct Newton iteration for .op point succeeded.
Semiconductor Device Operating Points:
                        --- Bipolar Transistors ---
Name:       q1
Model:      npn
Ib:       2.00e-08
Ic:       2.00e-06
Vbe:      6.13e-01
Vbc:     -3.72e+00
Vce:      4.33e+00
BetaDC:   1.00e+02
Gm:       7.73e-05
Rpi:      1.29e+06
Rx:       0.00e+00
Ro:       7.44e+76
Cbe:      0.00e+00
Cbc:      0.00e+00
Cjs:      0.00e+00
BetaAC:   1.00e+02
Cbx:      0.00e+00
Ft:       0.00e+00



Date: Tue Feb 01 23:52:30 2022
Total elapsed time: 0.029 seconds.

tnom = 27
temp = 27
method = trap
totiter = 13
traniter = 0
tranpoints = 0
accept = 0
rejected = 0
matrix size = 10
fillins = 0
solver = Normal
Matrix Compiler1: 220 bytes object code size
Matrix Compiler2: 510 bytes object code size
